Time Stamp,ID,Extended,Dir,Bus,LEN,D1,D2,D3,D4,D5,D6,D7,D8
0,000007E0,false,Tx,0,8,02,10,03,AA,AA,AA,AA,AA
6000,000007E8,false,Rx,0,8,06,50,03,00,32,01,F4,AA
27000,000007E0,false,Tx,0,8,03,22,F1,90,AA,AA,AA,AA
33000,000007E8,false,Rx,0,8,10,14,62,F1,90,57,30,4C
34000,000007E0,false,Tx,0,8,30,00,00,AA,AA,AA,AA,AA
35000,000007E8,false,Rx,0,8,21,30,30,30,30,34,33,4D
36000,000007E8,false,Rx,0,8,22,42,35,34,31,33,32,36
57000,000007E0,false,Tx,0,8,02,85,02,AA,AA,AA,AA,AA
63000,000007E8,false,Rx,0,8,02,C5,02,AA,AA,AA,AA,AA
84000,000007E0,false,Tx,0,8,03,28,03,01,AA,AA,AA,AA
90000,000007E8,false,Rx,0,8,02,68,03,AA,AA,AA,AA,AA
111000,000007E0,false,Tx,0,8,02,10,02,AA,AA,AA,AA,AA
117000,000007E8,false,Rx,0,8,06,50,02,00,32,01,F4,AA
168000,000007E0,false,Tx,0,8,02,27,01,AA,AA,AA,AA,AA
174000,000007E8,false,Rx,0,8,06,67,01,11,22,33,44,AA
195000,000007E0,false,Tx,0,8,06,27,02,AA,BB,CC,DD,AA
201000,000007E8,false,Rx,0,8,03,7F,27,35,AA,AA,AA,AA
302000,000007E0,false,Tx,0,8,02,27,01,AA,AA,AA,AA,AA
308000,000007E8,false,Rx,0,8,06,67,01,55,66,77,88,AA
329000,000007E0,false,Tx,0,8,06,27,02,9A,98,88,77,AA
335000,000007E8,false,Rx,0,8,02,67,02,AA,AA,AA,AA,AA
356000,000007E0,false,Tx,0,8,02,3E,80,AA,AA,AA,AA,AA
377000,000007E0,false,Tx,0,8,04,31,01,FF,00,AA,AA,AA
388000,000007E8,false,Rx,0,8,03,7F,31,78,AA,AA,AA,AA
1189000,000007E8,false,Rx,0,8,04,71,01,FF,00,AA,AA,AA
1210000,000007E0,false,Tx,0,8,10,0B,34,00,44,08,00,00
1211000,000007E8,false,Rx,0,8,30,00,00,AA,AA,AA,AA,AA
1212000,000007E0,false,Tx,0,8,21,00,00,00,04,00,AA,AA
1218000,000007E8,false,Rx,0,8,04,74,20,01,02,AA,AA,AA
1229000,000007E0,false,Tx,0,8,11,02,36,01,03,0A,11,18
1230000,000007E8,false,Rx,0,8,30,00,00,AA,AA,AA,AA,AA
1231000,000007E0,false,Tx,0,8,21,1F,26,2D,34,3B,42,49
1232000,000007E0,false,Tx,0,8,22,50,57,5E,65,6C,73,7A
1233000,000007E0,false,Tx,0,8,23,81,88,8F,96,9D,A4,AB
1234000,000007E0,false,Tx,0,8,24,B2,B9,C0,C7,CE,D5,DC
1235000,000007E0,false,Tx,0,8,25,E3,EA,F1,F8,FF,06,0D
1236000,000007E0,false,Tx,0,8,26,14,1B,22,29,30,37,3E
1237000,000007E0,false,Tx,0,8,27,45,4C,53,5A,61,68,6F
1238000,000007E0,false,Tx,0,8,28,76,7D,84,8B,92,99,A0
1239000,000007E0,false,Tx,0,8,29,A7,AE,B5,BC,C3,CA,D1
1240000,000007E0,false,Tx,0,8,2A,D8,DF,E6,ED,F4,FB,02
1241000,000007E0,false,Tx,0,8,2B,09,10,17,1E,25,2C,33
1242000,000007E0,false,Tx,0,8,2C,3A,41,48,4F,56,5D,64
1243000,000007E0,false,Tx,0,8,2D,6B,72,79,80,87,8E,95
1244000,000007E0,false,Tx,0,8,2E,9C,A3,AA,B1,B8,BF,C6
1245000,000007E0,false,Tx,0,8,2F,CD,D4,DB,E2,E9,F0,F7
1246000,000007E0,false,Tx,0,8,20,FE,05,0C,13,1A,21,28
1247000,000007E0,false,Tx,0,8,21,2F,36,3D,44,4B,52,59
1248000,000007E0,false,Tx,0,8,22,60,67,6E,75,7C,83,8A
1249000,000007E0,false,Tx,0,8,23,91,98,9F,A6,AD,B4,BB
1250000,000007E0,false,Tx,0,8,24,C2,C9,D0,D7,DE,E5,EC
1251000,000007E0,false,Tx,0,8,25,F3,FA,01,08,0F,16,1D
1252000,000007E0,false,Tx,0,8,26,24,2B,32,39,40,47,4E
1253000,000007E0,false,Tx,0,8,27,55,5C,63,6A,71,78,7F
1254000,000007E0,false,Tx,0,8,28,86,8D,94,9B,A2,A9,B0
1255000,000007E0,false,Tx,0,8,29,B7,BE,C5,CC,D3,DA,E1
1256000,000007E0,false,Tx,0,8,2A,E8,EF,F6,FD,04,0B,12
1257000,000007E0,false,Tx,0,8,2B,19,20,27,2E,35,3C,43
1258000,000007E0,false,Tx,0,8,2C,4A,51,58,5F,66,6D,74
1259000,000007E0,false,Tx,0,8,2D,7B,82,89,90,97,9E,A5
1260000,000007E0,false,Tx,0,8,2E,AC,B3,BA,C1,C8,CF,D6
1261000,000007E0,false,Tx,0,8,2F,DD,E4,EB,F2,F9,00,07
1262000,000007E0,false,Tx,0,8,20,0E,15,1C,23,2A,31,38
1263000,000007E0,false,Tx,0,8,21,3F,46,4D,54,5B,62,69
1264000,000007E0,false,Tx,0,8,22,70,77,7E,85,8C,93,9A
1265000,000007E0,false,Tx,0,8,23,A1,A8,AF,B6,BD,C4,CB
1266000,000007E0,false,Tx,0,8,24,D2,D9,E0,E7,EE,F5,FC
1272000,000007E8,false,Rx,0,8,02,76,01,AA,AA,AA,AA,AA
1278000,000007E0,false,Tx,0,8,11,02,36,02,03,0A,11,18
1279000,000007E8,false,Rx,0,8,30,00,00,AA,AA,AA,AA,AA
1280000,000007E0,false,Tx,0,8,21,1F,26,2D,34,3B,42,49
1281000,000007E0,false,Tx,0,8,22,50,57,5E,65,6C,73,7A
1282000,000007E0,false,Tx,0,8,23,81,88,8F,96,9D,A4,AB
1283000,000007E0,false,Tx,0,8,24,B2,B9,C0,C7,CE,D5,DC
1284000,000007E0,false,Tx,0,8,25,E3,EA,F1,F8,FF,06,0D
1285000,000007E0,false,Tx,0,8,26,14,1B,22,29,30,37,3E
1286000,000007E0,false,Tx,0,8,27,45,4C,53,5A,61,68,6F
1287000,000007E0,false,Tx,0,8,28,76,7D,84,8B,92,99,A0
1288000,000007E0,false,Tx,0,8,29,A7,AE,B5,BC,C3,CA,D1
1289000,000007E0,false,Tx,0,8,2A,D8,DF,E6,ED,F4,FB,02
1290000,000007E0,false,Tx,0,8,2B,09,10,17,1E,25,2C,33
1291000,000007E0,false,Tx,0,8,2C,3A,41,48,4F,56,5D,64
1292000,000007E0,false,Tx,0,8,2D,6B,72,79,80,87,8E,95
1293000,000007E0,false,Tx,0,8,2E,9C,A3,AA,B1,B8,BF,C6
1294000,000007E0,false,Tx,0,8,2F,CD,D4,DB,E2,E9,F0,F7
1295000,000007E0,false,Tx,0,8,20,FE,05,0C,13,1A,21,28
1296000,000007E0,false,Tx,0,8,21,2F,36,3D,44,4B,52,59
1297000,000007E0,false,Tx,0,8,22,60,67,6E,75,7C,83,8A
1298000,000007E0,false,Tx,0,8,23,91,98,9F,A6,AD,B4,BB
1299000,000007E0,false,Tx,0,8,24,C2,C9,D0,D7,DE,E5,EC
1300000,000007E0,false,Tx,0,8,25,F3,FA,01,08,0F,16,1D
1301000,000007E0,false,Tx,0,8,26,24,2B,32,39,40,47,4E
1302000,000007E0,false,Tx,0,8,27,55,5C,63,6A,71,78,7F
1303000,000007E0,false,Tx,0,8,28,86,8D,94,9B,A2,A9,B0
1304000,000007E0,false,Tx,0,8,29,B7,BE,C5,CC,D3,DA,E1
1305000,000007E0,false,Tx,0,8,2A,E8,EF,F6,FD,04,0B,12
1306000,000007E0,false,Tx,0,8,2B,19,20,27,2E,35,3C,43
1307000,000007E0,false,Tx,0,8,2C,4A,51,58,5F,66,6D,74
1308000,000007E0,false,Tx,0,8,2D,7B,82,89,90,97,9E,A5
1309000,000007E0,false,Tx,0,8,2E,AC,B3,BA,C1,C8,CF,D6
1310000,000007E0,false,Tx,0,8,2F,DD,E4,EB,F2,F9,00,07
1311000,000007E0,false,Tx,0,8,20,0E,15,1C,23,2A,31,38
1312000,000007E0,false,Tx,0,8,21,3F,46,4D,54,5B,62,69
1313000,000007E0,false,Tx,0,8,22,70,77,7E,85,8C,93,9A
1314000,000007E0,false,Tx,0,8,23,A1,A8,AF,B6,BD,C4,CB
1315000,000007E0,false,Tx,0,8,24,D2,D9,E0,E7,EE,F5,FC
1321000,000007E8,false,Rx,0,8,02,76,02,AA,AA,AA,AA,AA
1327000,000007E0,false,Tx,0,8,11,02,36,04,03,0A,11,18
1328000,000007E8,false,Rx,0,8,30,00,00,AA,AA,AA,AA,AA
1329000,000007E0,false,Tx,0,8,21,1F,26,2D,34,3B,42,49
1330000,000007E0,false,Tx,0,8,22,50,57,5E,65,6C,73,7A
1331000,000007E0,false,Tx,0,8,23,81,88,8F,96,9D,A4,AB
1332000,000007E0,false,Tx,0,8,24,B2,B9,C0,C7,CE,D5,DC
1333000,000007E0,false,Tx,0,8,25,E3,EA,F1,F8,FF,06,0D
1334000,000007E0,false,Tx,0,8,26,14,1B,22,29,30,37,3E
1335000,000007E0,false,Tx,0,8,27,45,4C,53,5A,61,68,6F
1336000,000007E0,false,Tx,0,8,28,76,7D,84,8B,92,99,A0
1337000,000007E0,false,Tx,0,8,29,A7,AE,B5,BC,C3,CA,D1
1338000,000007E0,false,Tx,0,8,2A,D8,DF,E6,ED,F4,FB,02
1339000,000007E0,false,Tx,0,8,2B,09,10,17,1E,25,2C,33
1340000,000007E0,false,Tx,0,8,2C,3A,41,48,4F,56,5D,64
1341000,000007E0,false,Tx,0,8,2D,6B,72,79,80,87,8E,95
1342000,000007E0,false,Tx,0,8,2E,9C,A3,AA,B1,B8,BF,C6
1343000,000007E0,false,Tx,0,8,2F,CD,D4,DB,E2,E9,F0,F7
1344000,000007E0,false,Tx,0,8,20,FE,05,0C,13,1A,21,28
1345000,000007E0,false,Tx,0,8,21,2F,36,3D,44,4B,52,59
1346000,000007E0,false,Tx,0,8,22,60,67,6E,75,7C,83,8A
1347000,000007E0,false,Tx,0,8,23,91,98,9F,A6,AD,B4,BB
1348000,000007E0,false,Tx,0,8,24,C2,C9,D0,D7,DE,E5,EC
1349000,000007E0,false,Tx,0,8,25,F3,FA,01,08,0F,16,1D
1350000,000007E0,false,Tx,0,8,26,24,2B,32,39,40,47,4E
1351000,000007E0,false,Tx,0,8,27,55,5C,63,6A,71,78,7F
1352000,000007E0,false,Tx,0,8,28,86,8D,94,9B,A2,A9,B0
1353000,000007E0,false,Tx,0,8,29,B7,BE,C5,CC,D3,DA,E1
1354000,000007E0,false,Tx,0,8,2A,E8,EF,F6,FD,04,0B,12
1355000,000007E0,false,Tx,0,8,2B,19,20,27,2E,35,3C,43
1356000,000007E0,false,Tx,0,8,2C,4A,51,58,5F,66,6D,74
1357000,000007E0,false,Tx,0,8,2D,7B,82,89,90,97,9E,A5
1358000,000007E0,false,Tx,0,8,2E,AC,B3,BA,C1,C8,CF,D6
1359000,000007E0,false,Tx,0,8,2F,DD,E4,EB,F2,F9,00,07
1360000,000007E0,false,Tx,0,8,20,0E,15,1C,23,2A,31,38
1361000,000007E0,false,Tx,0,8,21,3F,46,4D,54,5B,62,69
1362000,000007E0,false,Tx,0,8,22,70,77,7E,85,8C,93,9A
1363000,000007E0,false,Tx,0,8,23,A1,A8,AF,B6,BD,C4,CB
1364000,000007E0,false,Tx,0,8,24,D2,D9,E0,E7,EE,F5,FC
1370000,000007E8,false,Rx,0,8,03,7F,36,73,AA,AA,AA,AA
1421000,000007E0,false,Tx,0,8,04,31,01,FF,00,AA,AA,AA
7422000,000007E0,false,Tx,0,8,02,3E,80,AA,AA,AA,AA,AA
