;$FILEVERSION=1.1
;$STARTTIME=45203.4166666667
;   Message Number
;   |         Time Offset (ms)
     1)          0.0  Tx         07E0  8  02 10 03 AA AA AA AA AA
     2)          6.0  Rx         07E8  8  06 50 03 00 32 01 F4 AA
     3)         27.0  Tx         07E0  8  03 22 F1 90 AA AA AA AA
     4)         33.0  Rx         07E8  8  10 14 62 F1 90 57 30 4C
     5)         34.0  Tx         07E0  8  30 00 00 AA AA AA AA AA
     6)         35.0  Rx         07E8  8  21 30 30 30 30 34 33 4D
     7)         36.0  Rx         07E8  8  22 42 35 34 31 33 32 36
     8)         57.0  Tx         07E0  8  02 85 02 AA AA AA AA AA
     9)         63.0  Rx         07E8  8  02 C5 02 AA AA AA AA AA
    10)         84.0  Tx         07E0  8  03 28 03 01 AA AA AA AA
    11)         90.0  Rx         07E8  8  02 68 03 AA AA AA AA AA
    12)        111.0  Tx         07E0  8  02 10 02 AA AA AA AA AA
    13)        117.0  Rx         07E8  8  06 50 02 00 32 01 F4 AA
    14)        168.0  Tx         07E0  8  02 27 01 AA AA AA AA AA
    15)        174.0  Rx         07E8  8  06 67 01 11 22 33 44 AA
    16)        195.0  Tx         07E0  8  06 27 02 AA BB CC DD AA
    17)        201.0  Rx         07E8  8  03 7F 27 35 AA AA AA AA
    18)        302.0  Tx         07E0  8  02 27 01 AA AA AA AA AA
    19)        308.0  Rx         07E8  8  06 67 01 55 66 77 88 AA
    20)        329.0  Tx         07E0  8  06 27 02 9A 98 88 77 AA
    21)        335.0  Rx         07E8  8  02 67 02 AA AA AA AA AA
    22)        356.0  Tx         07E0  8  02 3E 80 AA AA AA AA AA
    23)        377.0  Tx         07E0  8  04 31 01 FF 00 AA AA AA
    24)        388.0  Rx         07E8  8  03 7F 31 78 AA AA AA AA
    25)       1189.0  Rx         07E8  8  04 71 01 FF 00 AA AA AA
    26)       1210.0  Tx         07E0  8  10 0B 34 00 44 08 00 00
    27)       1211.0  Rx         07E8  8  30 00 00 AA AA AA AA AA
    28)       1212.0  Tx         07E0  8  21 00 00 00 04 00 AA AA
    29)       1218.0  Rx         07E8  8  04 74 20 01 02 AA AA AA
    30)       1229.0  Tx         07E0  8  11 02 36 01 03 0A 11 18
    31)       1230.0  Rx         07E8  8  30 00 00 AA AA AA AA AA
    32)       1231.0  Tx         07E0  8  21 1F 26 2D 34 3B 42 49
    33)       1232.0  Tx         07E0  8  22 50 57 5E 65 6C 73 7A
    34)       1233.0  Tx         07E0  8  23 81 88 8F 96 9D A4 AB
    35)       1234.0  Tx         07E0  8  24 B2 B9 C0 C7 CE D5 DC
    36)       1235.0  Tx         07E0  8  25 E3 EA F1 F8 FF 06 0D
    37)       1236.0  Tx         07E0  8  26 14 1B 22 29 30 37 3E
    38)       1237.0  Tx         07E0  8  27 45 4C 53 5A 61 68 6F
    39)       1238.0  Tx         07E0  8  28 76 7D 84 8B 92 99 A0
    40)       1239.0  Tx         07E0  8  29 A7 AE B5 BC C3 CA D1
    41)       1240.0  Tx         07E0  8  2A D8 DF E6 ED F4 FB 02
    42)       1241.0  Tx         07E0  8  2B 09 10 17 1E 25 2C 33
    43)       1242.0  Tx         07E0  8  2C 3A 41 48 4F 56 5D 64
    44)       1243.0  Tx         07E0  8  2D 6B 72 79 80 87 8E 95
    45)       1244.0  Tx         07E0  8  2E 9C A3 AA B1 B8 BF C6
    46)       1245.0  Tx         07E0  8  2F CD D4 DB E2 E9 F0 F7
    47)       1246.0  Tx         07E0  8  20 FE 05 0C 13 1A 21 28
    48)       1247.0  Tx         07E0  8  21 2F 36 3D 44 4B 52 59
    49)       1248.0  Tx         07E0  8  22 60 67 6E 75 7C 83 8A
    50)       1249.0  Tx         07E0  8  23 91 98 9F A6 AD B4 BB
    51)       1250.0  Tx         07E0  8  24 C2 C9 D0 D7 DE E5 EC
    52)       1251.0  Tx         07E0  8  25 F3 FA 01 08 0F 16 1D
    53)       1252.0  Tx         07E0  8  26 24 2B 32 39 40 47 4E
    54)       1253.0  Tx         07E0  8  27 55 5C 63 6A 71 78 7F
    55)       1254.0  Tx         07E0  8  28 86 8D 94 9B A2 A9 B0
    56)       1255.0  Tx         07E0  8  29 B7 BE C5 CC D3 DA E1
    57)       1256.0  Tx         07E0  8  2A E8 EF F6 FD 04 0B 12
    58)       1257.0  Tx         07E0  8  2B 19 20 27 2E 35 3C 43
    59)       1258.0  Tx         07E0  8  2C 4A 51 58 5F 66 6D 74
    60)       1259.0  Tx         07E0  8  2D 7B 82 89 90 97 9E A5
    61)       1260.0  Tx         07E0  8  2E AC B3 BA C1 C8 CF D6
    62)       1261.0  Tx         07E0  8  2F DD E4 EB F2 F9 00 07
    63)       1262.0  Tx         07E0  8  20 0E 15 1C 23 2A 31 38
    64)       1263.0  Tx         07E0  8  21 3F 46 4D 54 5B 62 69
    65)       1264.0  Tx         07E0  8  22 70 77 7E 85 8C 93 9A
    66)       1265.0  Tx         07E0  8  23 A1 A8 AF B6 BD C4 CB
    67)       1266.0  Tx         07E0  8  24 D2 D9 E0 E7 EE F5 FC
    68)       1272.0  Rx         07E8  8  02 76 01 AA AA AA AA AA
    69)       1278.0  Tx         07E0  8  11 02 36 02 03 0A 11 18
    70)       1279.0  Rx         07E8  8  30 00 00 AA AA AA AA AA
    71)       1280.0  Tx         07E0  8  21 1F 26 2D 34 3B 42 49
    72)       1281.0  Tx         07E0  8  22 50 57 5E 65 6C 73 7A
    73)       1282.0  Tx         07E0  8  23 81 88 8F 96 9D A4 AB
    74)       1283.0  Tx         07E0  8  24 B2 B9 C0 C7 CE D5 DC
    75)       1284.0  Tx         07E0  8  25 E3 EA F1 F8 FF 06 0D
    76)       1285.0  Tx         07E0  8  26 14 1B 22 29 30 37 3E
    77)       1286.0  Tx         07E0  8  27 45 4C 53 5A 61 68 6F
    78)       1287.0  Tx         07E0  8  28 76 7D 84 8B 92 99 A0
    79)       1288.0  Tx         07E0  8  29 A7 AE B5 BC C3 CA D1
    80)       1289.0  Tx         07E0  8  2A D8 DF E6 ED F4 FB 02
    81)       1290.0  Tx         07E0  8  2B 09 10 17 1E 25 2C 33
    82)       1291.0  Tx         07E0  8  2C 3A 41 48 4F 56 5D 64
    83)       1292.0  Tx         07E0  8  2D 6B 72 79 80 87 8E 95
    84)       1293.0  Tx         07E0  8  2E 9C A3 AA B1 B8 BF C6
    85)       1294.0  Tx         07E0  8  2F CD D4 DB E2 E9 F0 F7
    86)       1295.0  Tx         07E0  8  20 FE 05 0C 13 1A 21 28
    87)       1296.0  Tx         07E0  8  21 2F 36 3D 44 4B 52 59
    88)       1297.0  Tx         07E0  8  22 60 67 6E 75 7C 83 8A
    89)       1298.0  Tx         07E0  8  23 91 98 9F A6 AD B4 BB
    90)       1299.0  Tx         07E0  8  24 C2 C9 D0 D7 DE E5 EC
    91)       1300.0  Tx         07E0  8  25 F3 FA 01 08 0F 16 1D
    92)       1301.0  Tx         07E0  8  26 24 2B 32 39 40 47 4E
    93)       1302.0  Tx         07E0  8  27 55 5C 63 6A 71 78 7F
    94)       1303.0  Tx         07E0  8  28 86 8D 94 9B A2 A9 B0
    95)       1304.0  Tx         07E0  8  29 B7 BE C5 CC D3 DA E1
    96)       1305.0  Tx         07E0  8  2A E8 EF F6 FD 04 0B 12
    97)       1306.0  Tx         07E0  8  2B 19 20 27 2E 35 3C 43
    98)       1307.0  Tx         07E0  8  2C 4A 51 58 5F 66 6D 74
    99)       1308.0  Tx         07E0  8  2D 7B 82 89 90 97 9E A5
   100)       1309.0  Tx         07E0  8  2E AC B3 BA C1 C8 CF D6
   101)       1310.0  Tx         07E0  8  2F DD E4 EB F2 F9 00 07
   102)       1311.0  Tx         07E0  8  20 0E 15 1C 23 2A 31 38
   103)       1312.0  Tx         07E0  8  21 3F 46 4D 54 5B 62 69
   104)       1313.0  Tx         07E0  8  22 70 77 7E 85 8C 93 9A
   105)       1314.0  Tx         07E0  8  23 A1 A8 AF B6 BD C4 CB
   106)       1315.0  Tx         07E0  8  24 D2 D9 E0 E7 EE F5 FC
   107)       1321.0  Rx         07E8  8  02 76 02 AA AA AA AA AA
   108)       1327.0  Tx         07E0  8  11 02 36 03 03 0A 11 18
   109)       1328.0  Rx         07E8  8  30 00 00 AA AA AA AA AA
   110)       1329.0  Tx         07E0  8  21 1F 26 2D 34 3B 42 49
   111)       1330.0  Tx         07E0  8  22 50 57 5E 65 6C 73 7A
   112)       1331.0  Tx         07E0  8  23 81 88 8F 96 9D A4 AB
   113)       1332.0  Tx         07E0  8  24 B2 B9 C0 C7 CE D5 DC
   114)       1333.0  Tx         07E0  8  25 E3 EA F1 F8 FF 06 0D
   115)       1334.0  Tx         07E0  8  26 14 1B 22 29 30 37 3E
   116)       1335.0  Tx         07E0  8  27 45 4C 53 5A 61 68 6F
   117)       1336.0  Tx         07E0  8  28 76 7D 84 8B 92 99 A0
   118)       1337.0  Tx         07E0  8  29 A7 AE B5 BC C3 CA D1
   119)       1338.0  Tx         07E0  8  2A D8 DF E6 ED F4 FB 02
   120)       1339.0  Tx         07E0  8  2B 09 10 17 1E 25 2C 33
   121)       1340.0  Tx         07E0  8  2C 3A 41 48 4F 56 5D 64
   122)       1341.0  Tx         07E0  8  2D 6B 72 79 80 87 8E 95
   123)       1342.0  Tx         07E0  8  2E 9C A3 AA B1 B8 BF C6
   124)       1343.0  Tx         07E0  8  2F CD D4 DB E2 E9 F0 F7
   125)       1344.0  Tx         07E0  8  20 FE 05 0C 13 1A 21 28
   126)       1345.0  Tx         07E0  8  21 2F 36 3D 44 4B 52 59
   127)       1346.0  Tx         07E0  8  22 60 67 6E 75 7C 83 8A
   128)       1347.0  Tx         07E0  8  23 91 98 9F A6 AD B4 BB
   129)       1348.0  Tx         07E0  8  24 C2 C9 D0 D7 DE E5 EC
   130)       1349.0  Tx         07E0  8  25 F3 FA 01 08 0F 16 1D
   131)       1350.0  Tx         07E0  8  26 24 2B 32 39 40 47 4E
   132)       1351.0  Tx         07E0  8  27 55 5C 63 6A 71 78 7F
   133)       1352.0  Tx         07E0  8  28 86 8D 94 9B A2 A9 B0
   134)       1353.0  Tx         07E0  8  29 B7 BE C5 CC D3 DA E1
   135)       1354.0  Tx         07E0  8  2A E8 EF F6 FD 04 0B 12
   136)       1355.0  Tx         07E0  8  2B 19 20 27 2E 35 3C 43
   137)       1356.0  Tx         07E0  8  2C 4A 51 58 5F 66 6D 74
   138)       1357.0  Tx         07E0  8  2D 7B 82 89 90 97 9E A5
   139)       1358.0  Tx         07E0  8  2E AC B3 BA C1 C8 CF D6
   140)       1359.0  Tx         07E0  8  2F DD E4 EB F2 F9 00 07
   141)       1360.0  Tx         07E0  8  20 0E 15 1C 23 2A 31 38
   142)       1361.0  Tx         07E0  8  21 3F 46 4D 54 5B 62 69
   143)       1362.0  Tx         07E0  8  22 70 77 7E 85 8C 93 9A
   144)       1363.0  Tx         07E0  8  23 A1 A8 AF B6 BD C4 CB
   145)       1364.0  Tx         07E0  8  24 D2 D9 E0 E7 EE F5 FC
   146)       1565.0  Tx         07E0  8  11 02 36 03 03 0A 11 18
   147)       1566.0  Rx         07E8  8  30 00 00 AA AA AA AA AA
   148)       1567.0  Tx         07E0  8  21 1F 26 2D 34 3B 42 49
   149)       1568.0  Tx         07E0  8  22 50 57 5E 65 6C 73 7A
   150)       1569.0  Tx         07E0  8  23 81 88 8F 96 9D A4 AB
   151)       1570.0  Tx         07E0  8  24 B2 B9 C0 C7 CE D5 DC
   152)       1571.0  Tx         07E0  8  25 E3 EA F1 F8 FF 06 0D
   153)       1572.0  Tx         07E0  8  26 14 1B 22 29 30 37 3E
   154)       1573.0  Tx         07E0  8  27 45 4C 53 5A 61 68 6F
   155)       1574.0  Tx         07E0  8  28 76 7D 84 8B 92 99 A0
   156)       1575.0  Tx         07E0  8  29 A7 AE B5 BC C3 CA D1
   157)       1576.0  Tx         07E0  8  2A D8 DF E6 ED F4 FB 02
   158)       1577.0  Tx         07E0  8  2B 09 10 17 1E 25 2C 33
   159)       1578.0  Tx         07E0  8  2C 3A 41 48 4F 56 5D 64
   160)       1579.0  Tx         07E0  8  2D 6B 72 79 80 87 8E 95
   161)       1580.0  Tx         07E0  8  2E 9C A3 AA B1 B8 BF C6
   162)       1581.0  Tx         07E0  8  2F CD D4 DB E2 E9 F0 F7
   163)       1582.0  Tx         07E0  8  20 FE 05 0C 13 1A 21 28
   164)       1583.0  Tx         07E0  8  21 2F 36 3D 44 4B 52 59
   165)       1584.0  Tx         07E0  8  22 60 67 6E 75 7C 83 8A
   166)       1585.0  Tx         07E0  8  23 91 98 9F A6 AD B4 BB
   167)       1586.0  Tx         07E0  8  24 C2 C9 D0 D7 DE E5 EC
   168)       1587.0  Tx         07E0  8  25 F3 FA 01 08 0F 16 1D
   169)       1588.0  Tx         07E0  8  26 24 2B 32 39 40 47 4E
   170)       1589.0  Tx         07E0  8  27 55 5C 63 6A 71 78 7F
   171)       1590.0  Tx         07E0  8  28 86 8D 94 9B A2 A9 B0
   172)       1591.0  Tx         07E0  8  29 B7 BE C5 CC D3 DA E1
   173)       1592.0  Tx         07E0  8  2A E8 EF F6 FD 04 0B 12
   174)       1593.0  Tx         07E0  8  2B 19 20 27 2E 35 3C 43
   175)       1594.0  Tx         07E0  8  2C 4A 51 58 5F 66 6D 74
   176)       1595.0  Tx         07E0  8  2D 7B 82 89 90 97 9E A5
   177)       1596.0  Tx         07E0  8  2E AC B3 BA C1 C8 CF D6
   178)       1597.0  Tx         07E0  8  2F DD E4 EB F2 F9 00 07
   179)       1598.0  Tx         07E0  8  20 0E 15 1C 23 2A 31 38
   180)       1599.0  Tx         07E0  8  21 3F 46 4D 54 5B 62 69
   181)       1600.0  Tx         07E0  8  22 70 77 7E 85 8C 93 9A
   182)       1601.0  Tx         07E0  8  23 A1 A8 AF B6 BD C4 CB
   183)       1602.0  Tx         07E0  8  24 D2 D9 E0 E7 EE F5 FC
   184)       1608.0  Rx         07E8  8  02 76 03 AA AA AA AA AA
   185)       1614.0  Tx         07E0  8  11 02 36 04 03 0A 11 18
   186)       1615.0  Rx         07E8  8  30 00 00 AA AA AA AA AA
   187)       1616.0  Tx         07E0  8  21 1F 26 2D 34 3B 42 49
   188)       1617.0  Tx         07E0  8  22 50 57 5E 65 6C 73 7A
   189)       1618.0  Tx         07E0  8  23 81 88 8F 96 9D A4 AB
   190)       1619.0  Tx         07E0  8  24 B2 B9 C0 C7 CE D5 DC
   191)       1620.0  Tx         07E0  8  25 E3 EA F1 F8 FF 06 0D
   192)       1621.0  Tx         07E0  8  26 14 1B 22 29 30 37 3E
   193)       1622.0  Tx         07E0  8  27 45 4C 53 5A 61 68 6F
   194)       1623.0  Tx         07E0  8  28 76 7D 84 8B 92 99 A0
   195)       1624.0  Tx         07E0  8  29 A7 AE B5 BC C3 CA D1
   196)       1625.0  Tx         07E0  8  2A D8 DF E6 ED F4 FB 02
   197)       1626.0  Tx         07E0  8  2B 09 10 17 1E 25 2C 33
   198)       1627.0  Tx         07E0  8  2C 3A 41 48 4F 56 5D 64
   199)       1628.0  Tx         07E0  8  2D 6B 72 79 80 87 8E 95
   200)       1629.0  Tx         07E0  8  2E 9C A3 AA B1 B8 BF C6
   201)       1630.0  Tx         07E0  8  2F CD D4 DB E2 E9 F0 F7
   202)       1631.0  Tx         07E0  8  20 FE 05 0C 13 1A 21 28
   203)       1632.0  Tx         07E0  8  21 2F 36 3D 44 4B 52 59
   204)       1633.0  Tx         07E0  8  22 60 67 6E 75 7C 83 8A
   205)       1634.0  Tx         07E0  8  23 91 98 9F A6 AD B4 BB
   206)       1635.0  Tx         07E0  8  24 C2 C9 D0 D7 DE E5 EC
   207)       1636.0  Tx         07E0  8  25 F3 FA 01 08 0F 16 1D
   208)       1637.0  Tx         07E0  8  26 24 2B 32 39 40 47 4E
   209)       1638.0  Tx         07E0  8  27 55 5C 63 6A 71 78 7F
   210)       1639.0  Tx         07E0  8  28 86 8D 94 9B A2 A9 B0
   211)       1640.0  Tx         07E0  8  29 B7 BE C5 CC D3 DA E1
   212)       1641.0  Tx         07E0  8  2A E8 EF F6 FD 04 0B 12
   213)       1642.0  Tx         07E0  8  2B 19 20 27 2E 35 3C 43
   214)       1643.0  Tx         07E0  8  2C 4A 51 58 5F 66 6D 74
   215)       1644.0  Tx         07E0  8  2D 7B 82 89 90 97 9E A5
   216)       1645.0  Tx         07E0  8  2E AC B3 BA C1 C8 CF D6
   217)       1646.0  Tx         07E0  8  2F DD E4 EB F2 F9 00 07
   218)       1647.0  Tx         07E0  8  20 0E 15 1C 23 2A 31 38
   219)       1648.0  Tx         07E0  8  21 3F 46 4D 54 5B 62 69
   220)       1649.0  Tx         07E0  8  22 70 77 7E 85 8C 93 9A
   221)       1650.0  Tx         07E0  8  23 A1 A8 AF B6 BD C4 CB
   222)       1651.0  Tx         07E0  8  24 D2 D9 E0 E7 EE F5 FC
   223)       1657.0  Rx         07E8  8  02 76 04 AA AA AA AA AA
   224)       1668.0  Tx         07E0  8  01 37 AA AA AA AA AA AA
   225)       1674.0  Rx         07E8  8  01 77 AA AA AA AA AA AA
   226)       1685.0  Tx         07E0  8  04 31 01 FF 01 AA AA AA
   227)       1691.0  Rx         07E8  8  05 71 01 FF 01 00 AA AA
   228)       1702.0  Tx         07E0  8  02 11 01 AA AA AA AA AA
   229)       1708.0  Rx         07E8  8  02 51 01 AA AA AA AA AA
