(1696412345.000000) can0 7E0#021003AAAAAAAAAA
(1696412345.006000) can0 7E8#065003003201F4AA
(1696412345.027000) can0 7E0#0322F190AAAAAAAA
(1696412345.033000) can0 7E8#101462F19057304C
(1696412345.034000) can0 7E0#300000AAAAAAAAAA
(1696412345.035000) can0 7E8#213030303034334D
(1696412345.036000) can0 7E8#2242353431333236
(1696412345.057000) can0 7E0#028502AAAAAAAAAA
(1696412345.063000) can0 7E8#02C502AAAAAAAAAA
(1696412345.084000) can0 7E0#03280301AAAAAAAA
(1696412345.090000) can0 7E8#026803AAAAAAAAAA
(1696412345.111000) can0 7E0#021002AAAAAAAAAA
(1696412345.117000) can0 7E8#065002003201F4AA
(1696412345.168000) can0 7E0#022701AAAAAAAAAA
(1696412345.174000) can0 7E8#06670111223344AA
(1696412345.195000) can0 7E0#062702AABBCCDDAA
(1696412345.201000) can0 7E8#037F2735AAAAAAAA
(1696412345.302000) can0 7E0#022701AAAAAAAAAA
(1696412345.308000) can0 7E8#06670155667788AA
(1696412345.329000) can0 7E0#0627029A988877AA
(1696412345.335000) can0 7E8#026702AAAAAAAAAA
(1696412345.356000) can0 7E0#023E80AAAAAAAAAA
(1696412345.377000) can0 7E0#043101FF00AAAAAA
(1696412345.388000) can0 7E8#037F3178AAAAAAAA
(1696412346.189000) can0 7E8#047101FF00AAAAAA
(1696412346.210000) can0 7E0#100B340044080000
(1696412346.211000) can0 7E8#300000AAAAAAAAAA
(1696412346.212000) can0 7E0#210000000400AAAA
(1696412346.218000) can0 7E8#0474200102AAAAAA
(1696412346.229000) can0 7E0#11023601030A1118
(1696412346.230000) can0 7E8#300000AAAAAAAAAA
(1696412346.231000) can0 7E0#211F262D343B4249
(1696412346.232000) can0 7E0#2250575E656C737A
(1696412346.233000) can0 7E0#2381888F969DA4AB
(1696412346.234000) can0 7E0#24B2B9C0C7CED5DC
(1696412346.235000) can0 7E0#25E3EAF1F8FF060D
(1696412346.236000) can0 7E0#26141B222930373E
(1696412346.237000) can0 7E0#27454C535A61686F
(1696412346.238000) can0 7E0#28767D848B9299A0
(1696412346.239000) can0 7E0#29A7AEB5BCC3CAD1
(1696412346.240000) can0 7E0#2AD8DFE6EDF4FB02
(1696412346.241000) can0 7E0#2B0910171E252C33
(1696412346.242000) can0 7E0#2C3A41484F565D64
(1696412346.243000) can0 7E0#2D6B727980878E95
(1696412346.244000) can0 7E0#2E9CA3AAB1B8BFC6
(1696412346.245000) can0 7E0#2FCDD4DBE2E9F0F7
(1696412346.246000) can0 7E0#20FE050C131A2128
(1696412346.247000) can0 7E0#212F363D444B5259
(1696412346.248000) can0 7E0#2260676E757C838A
(1696412346.249000) can0 7E0#2391989FA6ADB4BB
(1696412346.250000) can0 7E0#24C2C9D0D7DEE5EC
(1696412346.251000) can0 7E0#25F3FA01080F161D
(1696412346.252000) can0 7E0#26242B323940474E
(1696412346.253000) can0 7E0#27555C636A71787F
(1696412346.254000) can0 7E0#28868D949BA2A9B0
(1696412346.255000) can0 7E0#29B7BEC5CCD3DAE1
(1696412346.256000) can0 7E0#2AE8EFF6FD040B12
(1696412346.257000) can0 7E0#2B1920272E353C43
(1696412346.258000) can0 7E0#2C4A51585F666D74
(1696412346.259000) can0 7E0#2D7B828990979EA5
(1696412346.260000) can0 7E0#2EACB3BAC1C8CFD6
(1696412346.261000) can0 7E0#2FDDE4EBF2F90007
(1696412346.262000) can0 7E0#200E151C232A3138
(1696412346.263000) can0 7E0#213F464D545B6269
(1696412346.264000) can0 7E0#2270777E858C939A
(1696412346.265000) can0 7E0#23A1A8AFB6BDC4CB
(1696412346.266000) can0 7E0#24D2D9E0E7EEF5FC
(1696412346.272000) can0 7E8#027601AAAAAAAAAA
(1696412346.278000) can0 7E0#11023602030A1118
(1696412346.279000) can0 7E8#300000AAAAAAAAAA
(1696412346.280000) can0 7E0#211F262D343B4249
(1696412346.281000) can0 7E0#2250575E656C737A
(1696412346.282000) can0 7E0#2381888F969DA4AB
(1696412346.283000) can0 7E0#24B2B9C0C7CED5DC
(1696412346.284000) can0 7E0#25E3EAF1F8FF060D
(1696412346.285000) can0 7E0#26141B222930373E
(1696412346.286000) can0 7E0#27454C535A61686F
(1696412346.287000) can0 7E0#28767D848B9299A0
(1696412346.288000) can0 7E0#29A7AEB5BCC3CAD1
(1696412346.289000) can0 7E0#2AD8DFE6EDF4FB02
(1696412346.290000) can0 7E0#2B0910171E252C33
(1696412346.291000) can0 7E0#2C3A41484F565D64
(1696412346.292000) can0 7E0#2D6B727980878E95
(1696412346.293000) can0 7E0#2E9CA3AAB1B8BFC6
(1696412346.294000) can0 7E0#2FCDD4DBE2E9F0F7
(1696412346.295000) can0 7E0#20FE050C131A2128
(1696412346.296000) can0 7E0#212F363D444B5259
(1696412346.297000) can0 7E0#2260676E757C838A
(1696412346.298000) can0 7E0#2391989FA6ADB4BB
(1696412346.299000) can0 7E0#24C2C9D0D7DEE5EC
(1696412346.300000) can0 7E0#25F3FA01080F161D
(1696412346.301000) can0 7E0#26242B323940474E
(1696412346.302000) can0 7E0#27555C636A71787F
(1696412346.303000) can0 7E0#28868D949BA2A9B0
(1696412346.304000) can0 7E0#29B7BEC5CCD3DAE1
(1696412346.305000) can0 7E0#2AE8EFF6FD040B12
(1696412346.306000) can0 7E0#2B1920272E353C43
(1696412346.307000) can0 7E0#2C4A51585F666D74
(1696412346.308000) can0 7E0#2D7B828990979EA5
(1696412346.309000) can0 7E0#2EACB3BAC1C8CFD6
(1696412346.310000) can0 7E0#2FDDE4EBF2F90007
(1696412346.311000) can0 7E0#200E151C232A3138
(1696412346.312000) can0 7E0#213F464D545B6269
(1696412346.313000) can0 7E0#2270777E858C939A
(1696412346.314000) can0 7E0#23A1A8AFB6BDC4CB
(1696412346.315000) can0 7E0#24D2D9E0E7EEF5FC
(1696412346.321000) can0 7E8#027602AAAAAAAAAA
(1696412346.327000) can0 7E0#11023603030A1118
(1696412346.328000) can0 7E8#300000AAAAAAAAAA
(1696412346.329000) can0 7E0#211F262D343B4249
(1696412346.330000) can0 7E0#2250575E656C737A
(1696412346.331000) can0 7E0#2381888F969DA4AB
(1696412346.332000) can0 7E0#24B2B9C0C7CED5DC
(1696412346.333000) can0 7E0#25E3EAF1F8FF060D
(1696412346.334000) can0 7E0#26141B222930373E
(1696412346.335000) can0 7E0#27454C535A61686F
(1696412346.336000) can0 7E0#28767D848B9299A0
(1696412346.337000) can0 7E0#29A7AEB5BCC3CAD1
(1696412346.338000) can0 7E0#2AD8DFE6EDF4FB02
(1696412346.339000) can0 7E0#2B0910171E252C33
(1696412346.340000) can0 7E0#2C3A41484F565D64
(1696412346.341000) can0 7E0#2D6B727980878E95
(1696412346.342000) can0 7E0#2E9CA3AAB1B8BFC6
(1696412346.343000) can0 7E0#2FCDD4DBE2E9F0F7
(1696412346.344000) can0 7E0#20FE050C131A2128
(1696412346.345000) can0 7E0#212F363D444B5259
(1696412346.346000) can0 7E0#2260676E757C838A
(1696412346.347000) can0 7E0#2391989FA6ADB4BB
(1696412346.348000) can0 7E0#24C2C9D0D7DEE5EC
(1696412346.349000) can0 7E0#25F3FA01080F161D
(1696412346.350000) can0 7E0#26242B323940474E
(1696412346.351000) can0 7E0#27555C636A71787F
(1696412346.352000) can0 7E0#28868D949BA2A9B0
(1696412346.353000) can0 7E0#29B7BEC5CCD3DAE1
(1696412346.354000) can0 7E0#2AE8EFF6FD040B12
(1696412346.355000) can0 7E0#2B1920272E353C43
(1696412346.356000) can0 7E0#2C4A51585F666D74
(1696412346.357000) can0 7E0#2D7B828990979EA5
(1696412346.358000) can0 7E0#2EACB3BAC1C8CFD6
(1696412346.359000) can0 7E0#2FDDE4EBF2F90007
(1696412346.360000) can0 7E0#200E151C232A3138
(1696412346.361000) can0 7E0#213F464D545B6269
(1696412346.362000) can0 7E0#2270777E858C939A
(1696412346.363000) can0 7E0#23A1A8AFB6BDC4CB
(1696412346.364000) can0 7E0#24D2D9E0E7EEF5FC
(1696412346.565000) can0 7E0#11023603030A1118
(1696412346.566000) can0 7E8#300000AAAAAAAAAA
(1696412346.567000) can0 7E0#211F262D343B4249
(1696412346.568000) can0 7E0#2250575E656C737A
(1696412346.569000) can0 7E0#2381888F969DA4AB
(1696412346.570000) can0 7E0#24B2B9C0C7CED5DC
(1696412346.571000) can0 7E0#25E3EAF1F8FF060D
(1696412346.572000) can0 7E0#26141B222930373E
(1696412346.573000) can0 7E0#27454C535A61686F
(1696412346.574000) can0 7E0#28767D848B9299A0
(1696412346.575000) can0 7E0#29A7AEB5BCC3CAD1
(1696412346.576000) can0 7E0#2AD8DFE6EDF4FB02
(1696412346.577000) can0 7E0#2B0910171E252C33
(1696412346.578000) can0 7E0#2C3A41484F565D64
(1696412346.579000) can0 7E0#2D6B727980878E95
(1696412346.580000) can0 7E0#2E9CA3AAB1B8BFC6
(1696412346.581000) can0 7E0#2FCDD4DBE2E9F0F7
(1696412346.582000) can0 7E0#20FE050C131A2128
(1696412346.583000) can0 7E0#212F363D444B5259
(1696412346.584000) can0 7E0#2260676E757C838A
(1696412346.585000) can0 7E0#2391989FA6ADB4BB
(1696412346.586000) can0 7E0#24C2C9D0D7DEE5EC
(1696412346.587000) can0 7E0#25F3FA01080F161D
(1696412346.588000) can0 7E0#26242B323940474E
(1696412346.589000) can0 7E0#27555C636A71787F
(1696412346.590000) can0 7E0#28868D949BA2A9B0
(1696412346.591000) can0 7E0#29B7BEC5CCD3DAE1
(1696412346.592000) can0 7E0#2AE8EFF6FD040B12
(1696412346.593000) can0 7E0#2B1920272E353C43
(1696412346.594000) can0 7E0#2C4A51585F666D74
(1696412346.595000) can0 7E0#2D7B828990979EA5
(1696412346.596000) can0 7E0#2EACB3BAC1C8CFD6
(1696412346.597000) can0 7E0#2FDDE4EBF2F90007
(1696412346.598000) can0 7E0#200E151C232A3138
(1696412346.599000) can0 7E0#213F464D545B6269
(1696412346.600000) can0 7E0#2270777E858C939A
(1696412346.601000) can0 7E0#23A1A8AFB6BDC4CB
(1696412346.602000) can0 7E0#24D2D9E0E7EEF5FC
(1696412346.608000) can0 7E8#027603AAAAAAAAAA
(1696412346.614000) can0 7E0#11023604030A1118
(1696412346.615000) can0 7E8#300000AAAAAAAAAA
(1696412346.616000) can0 7E0#211F262D343B4249
(1696412346.617000) can0 7E0#2250575E656C737A
(1696412346.618000) can0 7E0#2381888F969DA4AB
(1696412346.619000) can0 7E0#24B2B9C0C7CED5DC
(1696412346.620000) can0 7E0#25E3EAF1F8FF060D
(1696412346.621000) can0 7E0#26141B222930373E
(1696412346.622000) can0 7E0#27454C535A61686F
(1696412346.623000) can0 7E0#28767D848B9299A0
(1696412346.624000) can0 7E0#29A7AEB5BCC3CAD1
(1696412346.625000) can0 7E0#2AD8DFE6EDF4FB02
(1696412346.626000) can0 7E0#2B0910171E252C33
(1696412346.627000) can0 7E0#2C3A41484F565D64
(1696412346.628000) can0 7E0#2D6B727980878E95
(1696412346.629000) can0 7E0#2E9CA3AAB1B8BFC6
(1696412346.630000) can0 7E0#2FCDD4DBE2E9F0F7
(1696412346.631000) can0 7E0#20FE050C131A2128
(1696412346.632000) can0 7E0#212F363D444B5259
(1696412346.633000) can0 7E0#2260676E757C838A
(1696412346.634000) can0 7E0#2391989FA6ADB4BB
(1696412346.635000) can0 7E0#24C2C9D0D7DEE5EC
(1696412346.636000) can0 7E0#25F3FA01080F161D
(1696412346.637000) can0 7E0#26242B323940474E
(1696412346.638000) can0 7E0#27555C636A71787F
(1696412346.639000) can0 7E0#28868D949BA2A9B0
(1696412346.640000) can0 7E0#29B7BEC5CCD3DAE1
(1696412346.641000) can0 7E0#2AE8EFF6FD040B12
(1696412346.642000) can0 7E0#2B1920272E353C43
(1696412346.643000) can0 7E0#2C4A51585F666D74
(1696412346.644000) can0 7E0#2D7B828990979EA5
(1696412346.645000) can0 7E0#2EACB3BAC1C8CFD6
(1696412346.646000) can0 7E0#2FDDE4EBF2F90007
(1696412346.647000) can0 7E0#200E151C232A3138
(1696412346.648000) can0 7E0#213F464D545B6269
(1696412346.649000) can0 7E0#2270777E858C939A
(1696412346.650000) can0 7E0#23A1A8AFB6BDC4CB
(1696412346.651000) can0 7E0#24D2D9E0E7EEF5FC
(1696412346.657000) can0 7E8#027604AAAAAAAAAA
(1696412346.668000) can0 7E0#0137AAAAAAAAAAAA
(1696412346.674000) can0 7E8#0177AAAAAAAAAAAA
(1696412346.685000) can0 7E0#043101FF01AAAAAA
(1696412346.691000) can0 7E8#057101FF0100AAAA
(1696412346.702000) can0 7E0#021101AAAAAAAAAA
(1696412346.708000) can0 7E8#025101AAAAAAAAAA
