date Wed Oct 4 10:00:00.000 am 2026
base hex  timestamps absolute
internal events logged
// version 9.0.0
Begin Triggerblock Wed Oct 4 10:00:00.000 am 2026
   0.000000 Start of measurement
   0.000000 1  7E0             Tx   d 8 02 10 03 AA AA AA AA AA  Length = 240000 BitCount = 124 ID = 2016
   0.006000 1  7E8             Rx   d 8 06 50 03 00 32 01 F4 AA  Length = 240000 BitCount = 124 ID = 2024
   0.027000 1  7E0             Tx   d 8 03 22 F1 90 AA AA AA AA  Length = 240000 BitCount = 124 ID = 2016
   0.033000 1  7E8             Rx   d 8 10 14 62 F1 90 57 30 4C  Length = 240000 BitCount = 124 ID = 2024
   0.034000 1  7E0             Tx   d 8 30 00 00 AA AA AA AA AA  Length = 240000 BitCount = 124 ID = 2016
   0.035000 1  7E8             Rx   d 8 21 30 30 30 30 34 33 4D  Length = 240000 BitCount = 124 ID = 2024
   0.036000 1  7E8             Rx   d 8 22 42 35 34 31 33 32 36  Length = 240000 BitCount = 124 ID = 2024
   0.057000 1  7E0             Tx   d 8 02 85 02 AA AA AA AA AA  Length = 240000 BitCount = 124 ID = 2016
   0.063000 1  7E8             Rx   d 8 02 C5 02 AA AA AA AA AA  Length = 240000 BitCount = 124 ID = 2024
   0.084000 1  7E0             Tx   d 8 03 28 03 01 AA AA AA AA  Length = 240000 BitCount = 124 ID = 2016
   0.090000 1  7E8             Rx   d 8 02 68 03 AA AA AA AA AA  Length = 240000 BitCount = 124 ID = 2024
   0.111000 1  7E0             Tx   d 8 02 10 02 AA AA AA AA AA  Length = 240000 BitCount = 124 ID = 2016
   0.117000 1  7E8             Rx   d 8 06 50 02 00 32 01 F4 AA  Length = 240000 BitCount = 124 ID = 2024
   0.168000 1  7E0             Tx   d 8 02 27 01 AA AA AA AA AA  Length = 240000 BitCount = 124 ID = 2016
   0.174000 1  7E8             Rx   d 8 06 67 01 11 22 33 44 AA  Length = 240000 BitCount = 124 ID = 2024
   0.195000 1  7E0             Tx   d 8 06 27 02 AA BB CC DD AA  Length = 240000 BitCount = 124 ID = 2016
   0.201000 1  7E8             Rx   d 8 03 7F 27 35 AA AA AA AA  Length = 240000 BitCount = 124 ID = 2024
   0.302000 1  7E0             Tx   d 8 02 27 01 AA AA AA AA AA  Length = 240000 BitCount = 124 ID = 2016
   0.308000 1  7E8             Rx   d 8 06 67 01 55 66 77 88 AA  Length = 240000 BitCount = 124 ID = 2024
   0.329000 1  7E0             Tx   d 8 06 27 02 9A 98 88 77 AA  Length = 240000 BitCount = 124 ID = 2016
   0.335000 1  7E8             Rx   d 8 02 67 02 AA AA AA AA AA  Length = 240000 BitCount = 124 ID = 2024
   0.356000 1  7E0             Tx   d 8 02 3E 80 AA AA AA AA AA  Length = 240000 BitCount = 124 ID = 2016
   0.377000 1  7E0             Tx   d 8 04 31 01 FF 00 AA AA AA  Length = 240000 BitCount = 124 ID = 2016
   0.388000 1  7E8             Rx   d 8 03 7F 31 78 AA AA AA AA  Length = 240000 BitCount = 124 ID = 2024
   1.189000 1  7E8             Rx   d 8 04 71 01 FF 00 AA AA AA  Length = 240000 BitCount = 124 ID = 2024
   1.210000 1  7E0             Tx   d 8 10 0B 34 00 44 08 00 00  Length = 240000 BitCount = 124 ID = 2016
   1.211000 1  7E8             Rx   d 8 30 00 00 AA AA AA AA AA  Length = 240000 BitCount = 124 ID = 2024
   1.212000 1  7E0             Tx   d 8 21 00 00 00 04 00 AA AA  Length = 240000 BitCount = 124 ID = 2016
   1.218000 1  7E8             Rx   d 8 04 74 20 01 02 AA AA AA  Length = 240000 BitCount = 124 ID = 2024
   1.229000 1  7E0             Tx   d 8 11 02 36 01 03 0A 11 18  Length = 240000 BitCount = 124 ID = 2016
   1.230000 1  7E8             Rx   d 8 30 00 00 AA AA AA AA AA  Length = 240000 BitCount = 124 ID = 2024
   1.231000 1  7E0             Tx   d 8 21 1F 26 2D 34 3B 42 49  Length = 240000 BitCount = 124 ID = 2016
   1.232000 1  7E0             Tx   d 8 22 50 57 5E 65 6C 73 7A  Length = 240000 BitCount = 124 ID = 2016
   1.233000 1  7E0             Tx   d 8 23 81 88 8F 96 9D A4 AB  Length = 240000 BitCount = 124 ID = 2016
   1.234000 1  7E0             Tx   d 8 24 B2 B9 C0 C7 CE D5 DC  Length = 240000 BitCount = 124 ID = 2016
   1.235000 1  7E0             Tx   d 8 25 E3 EA F1 F8 FF 06 0D  Length = 240000 BitCount = 124 ID = 2016
   1.236000 1  7E0             Tx   d 8 26 14 1B 22 29 30 37 3E  Length = 240000 BitCount = 124 ID = 2016
   1.237000 1  7E0             Tx   d 8 27 45 4C 53 5A 61 68 6F  Length = 240000 BitCount = 124 ID = 2016
   1.238000 1  7E0             Tx   d 8 28 76 7D 84 8B 92 99 A0  Length = 240000 BitCount = 124 ID = 2016
   1.239000 1  7E0             Tx   d 8 29 A7 AE B5 BC C3 CA D1  Length = 240000 BitCount = 124 ID = 2016
   1.240000 1  7E0             Tx   d 8 2A D8 DF E6 ED F4 FB 02  Length = 240000 BitCount = 124 ID = 2016
   1.241000 1  7E0             Tx   d 8 2B 09 10 17 1E 25 2C 33  Length = 240000 BitCount = 124 ID = 2016
   1.242000 1  7E0             Tx   d 8 2C 3A 41 48 4F 56 5D 64  Length = 240000 BitCount = 124 ID = 2016
   1.243000 1  7E0             Tx   d 8 2D 6B 72 79 80 87 8E 95  Length = 240000 BitCount = 124 ID = 2016
   1.244000 1  7E0             Tx   d 8 2E 9C A3 AA B1 B8 BF C6  Length = 240000 BitCount = 124 ID = 2016
   1.245000 1  7E0             Tx   d 8 2F CD D4 DB E2 E9 F0 F7  Length = 240000 BitCount = 124 ID = 2016
   1.246000 1  7E0             Tx   d 8 20 FE 05 0C 13 1A 21 28  Length = 240000 BitCount = 124 ID = 2016
   1.247000 1  7E0             Tx   d 8 21 2F 36 3D 44 4B 52 59  Length = 240000 BitCount = 124 ID = 2016
   1.248000 1  7E0             Tx   d 8 22 60 67 6E 75 7C 83 8A  Length = 240000 BitCount = 124 ID = 2016
   1.249000 1  7E0             Tx   d 8 23 91 98 9F A6 AD B4 BB  Length = 240000 BitCount = 124 ID = 2016
   1.250000 1  7E0             Tx   d 8 24 C2 C9 D0 D7 DE E5 EC  Length = 240000 BitCount = 124 ID = 2016
   1.251000 1  7E0             Tx   d 8 25 F3 FA 01 08 0F 16 1D  Length = 240000 BitCount = 124 ID = 2016
   1.252000 1  7E0             Tx   d 8 26 24 2B 32 39 40 47 4E  Length = 240000 BitCount = 124 ID = 2016
   1.253000 1  7E0             Tx   d 8 27 55 5C 63 6A 71 78 7F  Length = 240000 BitCount = 124 ID = 2016
   1.254000 1  7E0             Tx   d 8 28 86 8D 94 9B A2 A9 B0  Length = 240000 BitCount = 124 ID = 2016
   1.255000 1  7E0             Tx   d 8 29 B7 BE C5 CC D3 DA E1  Length = 240000 BitCount = 124 ID = 2016
   1.256000 1  7E0             Tx   d 8 2A E8 EF F6 FD 04 0B 12  Length = 240000 BitCount = 124 ID = 2016
   1.257000 1  7E0             Tx   d 8 2B 19 20 27 2E 35 3C 43  Length = 240000 BitCount = 124 ID = 2016
   1.258000 1  7E0             Tx   d 8 2C 4A 51 58 5F 66 6D 74  Length = 240000 BitCount = 124 ID = 2016
   1.259000 1  7E0             Tx   d 8 2D 7B 82 89 90 97 9E A5  Length = 240000 BitCount = 124 ID = 2016
   1.260000 1  7E0             Tx   d 8 2E AC B3 BA C1 C8 CF D6  Length = 240000 BitCount = 124 ID = 2016
   1.261000 1  7E0             Tx   d 8 2F DD E4 EB F2 F9 00 07  Length = 240000 BitCount = 124 ID = 2016
   1.262000 1  7E0             Tx   d 8 20 0E 15 1C 23 2A 31 38  Length = 240000 BitCount = 124 ID = 2016
   1.263000 1  7E0             Tx   d 8 21 3F 46 4D 54 5B 62 69  Length = 240000 BitCount = 124 ID = 2016
   1.264000 1  7E0             Tx   d 8 22 70 77 7E 85 8C 93 9A  Length = 240000 BitCount = 124 ID = 2016
   1.265000 1  7E0             Tx   d 8 23 A1 A8 AF B6 BD C4 CB  Length = 240000 BitCount = 124 ID = 2016
   1.266000 1  7E0             Tx   d 8 24 D2 D9 E0 E7 EE F5 FC  Length = 240000 BitCount = 124 ID = 2016
   1.272000 1  7E8             Rx   d 8 02 76 01 AA AA AA AA AA  Length = 240000 BitCount = 124 ID = 2024
   1.278000 1  7E0             Tx   d 8 11 02 36 02 03 0A 11 18  Length = 240000 BitCount = 124 ID = 2016
   1.279000 1  7E8             Rx   d 8 30 00 00 AA AA AA AA AA  Length = 240000 BitCount = 124 ID = 2024
   1.280000 1  7E0             Tx   d 8 21 1F 26 2D 34 3B 42 49  Length = 240000 BitCount = 124 ID = 2016
   1.281000 1  7E0             Tx   d 8 22 50 57 5E 65 6C 73 7A  Length = 240000 BitCount = 124 ID = 2016
   1.282000 1  7E0             Tx   d 8 23 81 88 8F 96 9D A4 AB  Length = 240000 BitCount = 124 ID = 2016
   1.283000 1  7E0             Tx   d 8 24 B2 B9 C0 C7 CE D5 DC  Length = 240000 BitCount = 124 ID = 2016
   1.284000 1  7E0             Tx   d 8 25 E3 EA F1 F8 FF 06 0D  Length = 240000 BitCount = 124 ID = 2016
   1.285000 1  7E0             Tx   d 8 26 14 1B 22 29 30 37 3E  Length = 240000 BitCount = 124 ID = 2016
   1.286000 1  7E0             Tx   d 8 27 45 4C 53 5A 61 68 6F  Length = 240000 BitCount = 124 ID = 2016
   1.287000 1  7E0             Tx   d 8 28 76 7D 84 8B 92 99 A0  Length = 240000 BitCount = 124 ID = 2016
   1.288000 1  7E0             Tx   d 8 29 A7 AE B5 BC C3 CA D1  Length = 240000 BitCount = 124 ID = 2016
   1.289000 1  7E0             Tx   d 8 2A D8 DF E6 ED F4 FB 02  Length = 240000 BitCount = 124 ID = 2016
   1.290000 1  7E0             Tx   d 8 2B 09 10 17 1E 25 2C 33  Length = 240000 BitCount = 124 ID = 2016
   1.291000 1  7E0             Tx   d 8 2C 3A 41 48 4F 56 5D 64  Length = 240000 BitCount = 124 ID = 2016
   1.292000 1  7E0             Tx   d 8 2D 6B 72 79 80 87 8E 95  Length = 240000 BitCount = 124 ID = 2016
   1.293000 1  7E0             Tx   d 8 2E 9C A3 AA B1 B8 BF C6  Length = 240000 BitCount = 124 ID = 2016
   1.294000 1  7E0             Tx   d 8 2F CD D4 DB E2 E9 F0 F7  Length = 240000 BitCount = 124 ID = 2016
   1.295000 1  7E0             Tx   d 8 20 FE 05 0C 13 1A 21 28  Length = 240000 BitCount = 124 ID = 2016
   1.296000 1  7E0             Tx   d 8 21 2F 36 3D 44 4B 52 59  Length = 240000 BitCount = 124 ID = 2016
   1.297000 1  7E0             Tx   d 8 22 60 67 6E 75 7C 83 8A  Length = 240000 BitCount = 124 ID = 2016
   1.298000 1  7E0             Tx   d 8 23 91 98 9F A6 AD B4 BB  Length = 240000 BitCount = 124 ID = 2016
   1.299000 1  7E0             Tx   d 8 24 C2 C9 D0 D7 DE E5 EC  Length = 240000 BitCount = 124 ID = 2016
   1.300000 1  7E0             Tx   d 8 25 F3 FA 01 08 0F 16 1D  Length = 240000 BitCount = 124 ID = 2016
   1.301000 1  7E0             Tx   d 8 26 24 2B 32 39 40 47 4E  Length = 240000 BitCount = 124 ID = 2016
   1.302000 1  7E0             Tx   d 8 27 55 5C 63 6A 71 78 7F  Length = 240000 BitCount = 124 ID = 2016
   1.303000 1  7E0             Tx   d 8 28 86 8D 94 9B A2 A9 B0  Length = 240000 BitCount = 124 ID = 2016
   1.304000 1  7E0             Tx   d 8 29 B7 BE C5 CC D3 DA E1  Length = 240000 BitCount = 124 ID = 2016
   1.305000 1  7E0             Tx   d 8 2A E8 EF F6 FD 04 0B 12  Length = 240000 BitCount = 124 ID = 2016
   1.306000 1  7E0             Tx   d 8 2B 19 20 27 2E 35 3C 43  Length = 240000 BitCount = 124 ID = 2016
   1.307000 1  7E0             Tx   d 8 2C 4A 51 58 5F 66 6D 74  Length = 240000 BitCount = 124 ID = 2016
   1.308000 1  7E0             Tx   d 8 2D 7B 82 89 90 97 9E A5  Length = 240000 BitCount = 124 ID = 2016
   1.309000 1  7E0             Tx   d 8 2E AC B3 BA C1 C8 CF D6  Length = 240000 BitCount = 124 ID = 2016
   1.310000 1  7E0             Tx   d 8 2F DD E4 EB F2 F9 00 07  Length = 240000 BitCount = 124 ID = 2016
   1.311000 1  7E0             Tx   d 8 20 0E 15 1C 23 2A 31 38  Length = 240000 BitCount = 124 ID = 2016
   1.312000 1  7E0             Tx   d 8 21 3F 46 4D 54 5B 62 69  Length = 240000 BitCount = 124 ID = 2016
   1.313000 1  7E0             Tx   d 8 22 70 77 7E 85 8C 93 9A  Length = 240000 BitCount = 124 ID = 2016
   1.314000 1  7E0             Tx   d 8 23 A1 A8 AF B6 BD C4 CB  Length = 240000 BitCount = 124 ID = 2016
   1.315000 1  7E0             Tx   d 8 24 D2 D9 E0 E7 EE F5 FC  Length = 240000 BitCount = 124 ID = 2016
   1.321000 1  7E8             Rx   d 8 02 76 02 AA AA AA AA AA  Length = 240000 BitCount = 124 ID = 2024
   1.327000 1  7E0             Tx   d 8 11 02 36 03 03 0A 11 18  Length = 240000 BitCount = 124 ID = 2016
   1.328000 1  7E8             Rx   d 8 30 00 00 AA AA AA AA AA  Length = 240000 BitCount = 124 ID = 2024
   1.329000 1  7E0             Tx   d 8 21 1F 26 2D 34 3B 42 49  Length = 240000 BitCount = 124 ID = 2016
   1.330000 1  7E0             Tx   d 8 22 50 57 5E 65 6C 73 7A  Length = 240000 BitCount = 124 ID = 2016
   1.331000 1  7E0             Tx   d 8 23 81 88 8F 96 9D A4 AB  Length = 240000 BitCount = 124 ID = 2016
   1.332000 1  7E0             Tx   d 8 24 B2 B9 C0 C7 CE D5 DC  Length = 240000 BitCount = 124 ID = 2016
   1.333000 1  7E0             Tx   d 8 25 E3 EA F1 F8 FF 06 0D  Length = 240000 BitCount = 124 ID = 2016
   1.334000 1  7E0             Tx   d 8 26 14 1B 22 29 30 37 3E  Length = 240000 BitCount = 124 ID = 2016
   1.335000 1  7E0             Tx   d 8 27 45 4C 53 5A 61 68 6F  Length = 240000 BitCount = 124 ID = 2016
   1.336000 1  7E0             Tx   d 8 28 76 7D 84 8B 92 99 A0  Length = 240000 BitCount = 124 ID = 2016
   1.337000 1  7E0             Tx   d 8 29 A7 AE B5 BC C3 CA D1  Length = 240000 BitCount = 124 ID = 2016
   1.338000 1  7E0             Tx   d 8 2A D8 DF E6 ED F4 FB 02  Length = 240000 BitCount = 124 ID = 2016
   1.339000 1  7E0             Tx   d 8 2B 09 10 17 1E 25 2C 33  Length = 240000 BitCount = 124 ID = 2016
   1.340000 1  7E0             Tx   d 8 2C 3A 41 48 4F 56 5D 64  Length = 240000 BitCount = 124 ID = 2016
   1.341000 1  7E0             Tx   d 8 2D 6B 72 79 80 87 8E 95  Length = 240000 BitCount = 124 ID = 2016
   1.342000 1  7E0             Tx   d 8 2E 9C A3 AA B1 B8 BF C6  Length = 240000 BitCount = 124 ID = 2016
   1.343000 1  7E0             Tx   d 8 2F CD D4 DB E2 E9 F0 F7  Length = 240000 BitCount = 124 ID = 2016
   1.344000 1  7E0             Tx   d 8 20 FE 05 0C 13 1A 21 28  Length = 240000 BitCount = 124 ID = 2016
   1.345000 1  7E0             Tx   d 8 21 2F 36 3D 44 4B 52 59  Length = 240000 BitCount = 124 ID = 2016
   1.346000 1  7E0             Tx   d 8 22 60 67 6E 75 7C 83 8A  Length = 240000 BitCount = 124 ID = 2016
   1.347000 1  7E0             Tx   d 8 23 91 98 9F A6 AD B4 BB  Length = 240000 BitCount = 124 ID = 2016
   1.348000 1  7E0             Tx   d 8 24 C2 C9 D0 D7 DE E5 EC  Length = 240000 BitCount = 124 ID = 2016
   1.349000 1  7E0             Tx   d 8 25 F3 FA 01 08 0F 16 1D  Length = 240000 BitCount = 124 ID = 2016
   1.350000 1  7E0             Tx   d 8 26 24 2B 32 39 40 47 4E  Length = 240000 BitCount = 124 ID = 2016
   1.351000 1  7E0             Tx   d 8 27 55 5C 63 6A 71 78 7F  Length = 240000 BitCount = 124 ID = 2016
   1.352000 1  7E0             Tx   d 8 28 86 8D 94 9B A2 A9 B0  Length = 240000 BitCount = 124 ID = 2016
   1.353000 1  7E0             Tx   d 8 29 B7 BE C5 CC D3 DA E1  Length = 240000 BitCount = 124 ID = 2016
   1.354000 1  7E0             Tx   d 8 2A E8 EF F6 FD 04 0B 12  Length = 240000 BitCount = 124 ID = 2016
   1.355000 1  7E0             Tx   d 8 2B 19 20 27 2E 35 3C 43  Length = 240000 BitCount = 124 ID = 2016
   1.356000 1  7E0             Tx   d 8 2C 4A 51 58 5F 66 6D 74  Length = 240000 BitCount = 124 ID = 2016
   1.357000 1  7E0             Tx   d 8 2D 7B 82 89 90 97 9E A5  Length = 240000 BitCount = 124 ID = 2016
   1.358000 1  7E0             Tx   d 8 2E AC B3 BA C1 C8 CF D6  Length = 240000 BitCount = 124 ID = 2016
   1.359000 1  7E0             Tx   d 8 2F DD E4 EB F2 F9 00 07  Length = 240000 BitCount = 124 ID = 2016
   1.360000 1  7E0             Tx   d 8 20 0E 15 1C 23 2A 31 38  Length = 240000 BitCount = 124 ID = 2016
   1.361000 1  7E0             Tx   d 8 21 3F 46 4D 54 5B 62 69  Length = 240000 BitCount = 124 ID = 2016
   1.362000 1  7E0             Tx   d 8 22 70 77 7E 85 8C 93 9A  Length = 240000 BitCount = 124 ID = 2016
   1.363000 1  7E0             Tx   d 8 23 A1 A8 AF B6 BD C4 CB  Length = 240000 BitCount = 124 ID = 2016
   1.364000 1  7E0             Tx   d 8 24 D2 D9 E0 E7 EE F5 FC  Length = 240000 BitCount = 124 ID = 2016
   1.565000 1  7E0             Tx   d 8 11 02 36 03 03 0A 11 18  Length = 240000 BitCount = 124 ID = 2016
   1.566000 1  7E8             Rx   d 8 30 00 00 AA AA AA AA AA  Length = 240000 BitCount = 124 ID = 2024
   1.567000 1  7E0             Tx   d 8 21 1F 26 2D 34 3B 42 49  Length = 240000 BitCount = 124 ID = 2016
   1.568000 1  7E0             Tx   d 8 22 50 57 5E 65 6C 73 7A  Length = 240000 BitCount = 124 ID = 2016
   1.569000 1  7E0             Tx   d 8 23 81 88 8F 96 9D A4 AB  Length = 240000 BitCount = 124 ID = 2016
   1.570000 1  7E0             Tx   d 8 24 B2 B9 C0 C7 CE D5 DC  Length = 240000 BitCount = 124 ID = 2016
   1.571000 1  7E0             Tx   d 8 25 E3 EA F1 F8 FF 06 0D  Length = 240000 BitCount = 124 ID = 2016
   1.572000 1  7E0             Tx   d 8 26 14 1B 22 29 30 37 3E  Length = 240000 BitCount = 124 ID = 2016
   1.573000 1  7E0             Tx   d 8 27 45 4C 53 5A 61 68 6F  Length = 240000 BitCount = 124 ID = 2016
   1.574000 1  7E0             Tx   d 8 28 76 7D 84 8B 92 99 A0  Length = 240000 BitCount = 124 ID = 2016
   1.575000 1  7E0             Tx   d 8 29 A7 AE B5 BC C3 CA D1  Length = 240000 BitCount = 124 ID = 2016
   1.576000 1  7E0             Tx   d 8 2A D8 DF E6 ED F4 FB 02  Length = 240000 BitCount = 124 ID = 2016
   1.577000 1  7E0             Tx   d 8 2B 09 10 17 1E 25 2C 33  Length = 240000 BitCount = 124 ID = 2016
   1.578000 1  7E0             Tx   d 8 2C 3A 41 48 4F 56 5D 64  Length = 240000 BitCount = 124 ID = 2016
   1.579000 1  7E0             Tx   d 8 2D 6B 72 79 80 87 8E 95  Length = 240000 BitCount = 124 ID = 2016
   1.580000 1  7E0             Tx   d 8 2E 9C A3 AA B1 B8 BF C6  Length = 240000 BitCount = 124 ID = 2016
   1.581000 1  7E0             Tx   d 8 2F CD D4 DB E2 E9 F0 F7  Length = 240000 BitCount = 124 ID = 2016
   1.582000 1  7E0             Tx   d 8 20 FE 05 0C 13 1A 21 28  Length = 240000 BitCount = 124 ID = 2016
   1.583000 1  7E0             Tx   d 8 21 2F 36 3D 44 4B 52 59  Length = 240000 BitCount = 124 ID = 2016
   1.584000 1  7E0             Tx   d 8 22 60 67 6E 75 7C 83 8A  Length = 240000 BitCount = 124 ID = 2016
   1.585000 1  7E0             Tx   d 8 23 91 98 9F A6 AD B4 BB  Length = 240000 BitCount = 124 ID = 2016
   1.586000 1  7E0             Tx   d 8 24 C2 C9 D0 D7 DE E5 EC  Length = 240000 BitCount = 124 ID = 2016
   1.587000 1  7E0             Tx   d 8 25 F3 FA 01 08 0F 16 1D  Length = 240000 BitCount = 124 ID = 2016
   1.588000 1  7E0             Tx   d 8 26 24 2B 32 39 40 47 4E  Length = 240000 BitCount = 124 ID = 2016
   1.589000 1  7E0             Tx   d 8 27 55 5C 63 6A 71 78 7F  Length = 240000 BitCount = 124 ID = 2016
   1.590000 1  7E0             Tx   d 8 28 86 8D 94 9B A2 A9 B0  Length = 240000 BitCount = 124 ID = 2016
   1.591000 1  7E0             Tx   d 8 29 B7 BE C5 CC D3 DA E1  Length = 240000 BitCount = 124 ID = 2016
   1.592000 1  7E0             Tx   d 8 2A E8 EF F6 FD 04 0B 12  Length = 240000 BitCount = 124 ID = 2016
   1.593000 1  7E0             Tx   d 8 2B 19 20 27 2E 35 3C 43  Length = 240000 BitCount = 124 ID = 2016
   1.594000 1  7E0             Tx   d 8 2C 4A 51 58 5F 66 6D 74  Length = 240000 BitCount = 124 ID = 2016
   1.595000 1  7E0             Tx   d 8 2D 7B 82 89 90 97 9E A5  Length = 240000 BitCount = 124 ID = 2016
   1.596000 1  7E0             Tx   d 8 2E AC B3 BA C1 C8 CF D6  Length = 240000 BitCount = 124 ID = 2016
   1.597000 1  7E0             Tx   d 8 2F DD E4 EB F2 F9 00 07  Length = 240000 BitCount = 124 ID = 2016
   1.598000 1  7E0             Tx   d 8 20 0E 15 1C 23 2A 31 38  Length = 240000 BitCount = 124 ID = 2016
   1.599000 1  7E0             Tx   d 8 21 3F 46 4D 54 5B 62 69  Length = 240000 BitCount = 124 ID = 2016
   1.600000 1  7E0             Tx   d 8 22 70 77 7E 85 8C 93 9A  Length = 240000 BitCount = 124 ID = 2016
   1.601000 1  7E0             Tx   d 8 23 A1 A8 AF B6 BD C4 CB  Length = 240000 BitCount = 124 ID = 2016
   1.602000 1  7E0             Tx   d 8 24 D2 D9 E0 E7 EE F5 FC  Length = 240000 BitCount = 124 ID = 2016
   1.608000 1  7E8             Rx   d 8 02 76 03 AA AA AA AA AA  Length = 240000 BitCount = 124 ID = 2024
   1.614000 1  7E0             Tx   d 8 11 02 36 04 03 0A 11 18  Length = 240000 BitCount = 124 ID = 2016
   1.615000 1  7E8             Rx   d 8 30 00 00 AA AA AA AA AA  Length = 240000 BitCount = 124 ID = 2024
   1.616000 1  7E0             Tx   d 8 21 1F 26 2D 34 3B 42 49  Length = 240000 BitCount = 124 ID = 2016
   1.617000 1  7E0             Tx   d 8 22 50 57 5E 65 6C 73 7A  Length = 240000 BitCount = 124 ID = 2016
   1.618000 1  7E0             Tx   d 8 23 81 88 8F 96 9D A4 AB  Length = 240000 BitCount = 124 ID = 2016
   1.619000 1  7E0             Tx   d 8 24 B2 B9 C0 C7 CE D5 DC  Length = 240000 BitCount = 124 ID = 2016
   1.620000 1  7E0             Tx   d 8 25 E3 EA F1 F8 FF 06 0D  Length = 240000 BitCount = 124 ID = 2016
   1.621000 1  7E0             Tx   d 8 26 14 1B 22 29 30 37 3E  Length = 240000 BitCount = 124 ID = 2016
   1.622000 1  7E0             Tx   d 8 27 45 4C 53 5A 61 68 6F  Length = 240000 BitCount = 124 ID = 2016
   1.623000 1  7E0             Tx   d 8 28 76 7D 84 8B 92 99 A0  Length = 240000 BitCount = 124 ID = 2016
   1.624000 1  7E0             Tx   d 8 29 A7 AE B5 BC C3 CA D1  Length = 240000 BitCount = 124 ID = 2016
   1.625000 1  7E0             Tx   d 8 2A D8 DF E6 ED F4 FB 02  Length = 240000 BitCount = 124 ID = 2016
   1.626000 1  7E0             Tx   d 8 2B 09 10 17 1E 25 2C 33  Length = 240000 BitCount = 124 ID = 2016
   1.627000 1  7E0             Tx   d 8 2C 3A 41 48 4F 56 5D 64  Length = 240000 BitCount = 124 ID = 2016
   1.628000 1  7E0             Tx   d 8 2D 6B 72 79 80 87 8E 95  Length = 240000 BitCount = 124 ID = 2016
   1.629000 1  7E0             Tx   d 8 2E 9C A3 AA B1 B8 BF C6  Length = 240000 BitCount = 124 ID = 2016
   1.630000 1  7E0             Tx   d 8 2F CD D4 DB E2 E9 F0 F7  Length = 240000 BitCount = 124 ID = 2016
   1.631000 1  7E0             Tx   d 8 20 FE 05 0C 13 1A 21 28  Length = 240000 BitCount = 124 ID = 2016
   1.632000 1  7E0             Tx   d 8 21 2F 36 3D 44 4B 52 59  Length = 240000 BitCount = 124 ID = 2016
   1.633000 1  7E0             Tx   d 8 22 60 67 6E 75 7C 83 8A  Length = 240000 BitCount = 124 ID = 2016
   1.634000 1  7E0             Tx   d 8 23 91 98 9F A6 AD B4 BB  Length = 240000 BitCount = 124 ID = 2016
   1.635000 1  7E0             Tx   d 8 24 C2 C9 D0 D7 DE E5 EC  Length = 240000 BitCount = 124 ID = 2016
   1.636000 1  7E0             Tx   d 8 25 F3 FA 01 08 0F 16 1D  Length = 240000 BitCount = 124 ID = 2016
   1.637000 1  7E0             Tx   d 8 26 24 2B 32 39 40 47 4E  Length = 240000 BitCount = 124 ID = 2016
   1.638000 1  7E0             Tx   d 8 27 55 5C 63 6A 71 78 7F  Length = 240000 BitCount = 124 ID = 2016
   1.639000 1  7E0             Tx   d 8 28 86 8D 94 9B A2 A9 B0  Length = 240000 BitCount = 124 ID = 2016
   1.640000 1  7E0             Tx   d 8 29 B7 BE C5 CC D3 DA E1  Length = 240000 BitCount = 124 ID = 2016
   1.641000 1  7E0             Tx   d 8 2A E8 EF F6 FD 04 0B 12  Length = 240000 BitCount = 124 ID = 2016
   1.642000 1  7E0             Tx   d 8 2B 19 20 27 2E 35 3C 43  Length = 240000 BitCount = 124 ID = 2016
   1.643000 1  7E0             Tx   d 8 2C 4A 51 58 5F 66 6D 74  Length = 240000 BitCount = 124 ID = 2016
   1.644000 1  7E0             Tx   d 8 2D 7B 82 89 90 97 9E A5  Length = 240000 BitCount = 124 ID = 2016
   1.645000 1  7E0             Tx   d 8 2E AC B3 BA C1 C8 CF D6  Length = 240000 BitCount = 124 ID = 2016
   1.646000 1  7E0             Tx   d 8 2F DD E4 EB F2 F9 00 07  Length = 240000 BitCount = 124 ID = 2016
   1.647000 1  7E0             Tx   d 8 20 0E 15 1C 23 2A 31 38  Length = 240000 BitCount = 124 ID = 2016
   1.648000 1  7E0             Tx   d 8 21 3F 46 4D 54 5B 62 69  Length = 240000 BitCount = 124 ID = 2016
   1.649000 1  7E0             Tx   d 8 22 70 77 7E 85 8C 93 9A  Length = 240000 BitCount = 124 ID = 2016
   1.650000 1  7E0             Tx   d 8 23 A1 A8 AF B6 BD C4 CB  Length = 240000 BitCount = 124 ID = 2016
   1.651000 1  7E0             Tx   d 8 24 D2 D9 E0 E7 EE F5 FC  Length = 240000 BitCount = 124 ID = 2016
   1.657000 1  7E8             Rx   d 8 02 76 04 AA AA AA AA AA  Length = 240000 BitCount = 124 ID = 2024
   1.668000 1  7E0             Tx   d 8 01 37 AA AA AA AA AA AA  Length = 240000 BitCount = 124 ID = 2016
   1.674000 1  7E8             Rx   d 8 01 77 AA AA AA AA AA AA  Length = 240000 BitCount = 124 ID = 2024
   1.685000 1  7E0             Tx   d 8 04 31 01 FF 01 AA AA AA  Length = 240000 BitCount = 124 ID = 2016
   1.691000 1  7E8             Rx   d 8 05 71 01 FF 01 00 AA AA  Length = 240000 BitCount = 124 ID = 2024
   1.702000 1  7E0             Tx   d 8 02 11 01 AA AA AA AA AA  Length = 240000 BitCount = 124 ID = 2016
   1.708000 1  7E8             Rx   d 8 02 51 01 AA AA AA AA AA  Length = 240000 BitCount = 124 ID = 2024
End TriggerBlock
